T08A0 000:013.377   SEGGER J-Link V6.80a Log File
T08A0 000:013.497   DLL Compiled: May 29 2020 16:27:00
T08A0 000:013.506   Logging started @ 2020-09-05 09:29
T08A0 000:013.518 JLINK_SetWarnOutHandler(...)
T08A0 000:013.529 - 0.015ms
T08A0 000:013.544 JLINK_OpenEx(...)
T08A0 000:015.521   Firmware: J-Link OB-SAM3U128-V2-NordicSemi compiled Mar 17 2020 14:43:00
T08A0 000:018.146   Hardware: V1.00
T08A0 000:018.172   S/N: 682671759
T08A0 000:018.186   OEM: SEGGER
T08A0 000:018.200   Feature(s): RDI, FlashBP, FlashDL, JFlash, GDB
T08A0 000:019.547   TELNET listener socket opened on port 19021
T08A0 000:019.794   WEBSRV Starting webserver
T08A0 000:019.902   WEBSRV Webserver running on local port 19080
T08A0 000:019.918 - 6.379ms returns "O.K."
T08A0 000:019.963 JLINK_GetEmuCaps()
T08A0 000:019.972 - 0.014ms returns 0xB8EA5A33
T08A0 000:019.987 JLINK_TIF_GetAvailable(...)
T08A0 000:020.298 - 0.319ms
T08A0 000:020.316 JLINK_SetErrorOutHandler(...)
T08A0 000:020.326 - 0.014ms
T08A0 000:020.354 JLINK_ExecCommand("ProjectFile = "E:\NRF\nRF5_SDK_17.0.0_9d13099\examples\ble_peripheral\ble_app_template\pca10040\s132\arm5_no_packs\JLinkSettings.ini"", ...). 
T08A0 000:028.545   Ref file found at: C:\Keil_v5\ARM\Segger\JLinkDevices.ref
T08A0 000:028.730   XML referenced by ref file: C:\Program Files (x86)\SEGGER\JLink\JLinkDevices.xml
T08A0 000:029.514   C:\Program Files (x86)\SEGGER\JLink\JLinkDevices.xml evaluated successfully.
T08A0 000:121.414 - 101.079ms returns 0x00
T08A0 000:121.461 JLINK_ExecCommand("Device = nRF52832_xxAA", ...). 
T08A0 000:121.789   Device "NRF52832_XXAA" selected.
T08A0 000:122.165 - 0.698ms returns 0x00
T08A0 000:122.183 JLINK_ExecCommand("DisableConnectionTimeout", ...). 
T08A0 000:122.198 - 0.007ms returns 0x01
T08A0 000:122.209 JLINK_GetHardwareVersion()
T08A0 000:122.219 - 0.014ms returns 0x2710
T08A0 000:122.307 JLINK_GetDLLVersion()  returns 68001
T08A0 000:122.325 JLINK_GetFirmwareString(...)
T08A0 000:122.335 - 0.014ms
T08A0 000:122.362 JLINK_GetDLLVersion()  returns 68001
T08A0 000:122.374 JLINK_GetCompileDateTime()
T08A0 000:122.383 - 0.014ms
T08A0 000:122.400 JLINK_GetFirmwareString(...)
T08A0 000:122.409 - 0.014ms
T08A0 000:122.425 JLINK_GetHardwareVersion()
T08A0 000:122.435 - 0.014ms returns 0x2710
T08A0 000:122.465 JLINK_TIF_Select(JLINKARM_TIF_SWD)
T08A0 000:123.956 - 1.502ms returns 0x00
T08A0 000:123.988 JLINK_SetSpeed(5000)
T08A0 000:124.274 - 0.295ms
T08A0 000:124.292 JLINK_GetId()
T08A0 000:124.670   InitTarget() start
T08A0 000:124.689    J-Link Script File: Executing InitTarget()
T08A0 000:128.764   InitTarget() end
T08A0 000:129.705   Found SW-DP with ID 0x2BA01477
T08A0 000:132.467   DPIDR: 0x2BA01477
T08A0 000:132.602   Scanning AP map to find all available APs
T08A0 000:134.084   AP[2]: Stopped AP scan as end of AP map has been reached
T08A0 000:134.106   AP[0]: AHB-AP (IDR: 0x24770011)
T08A0 000:134.124   AP[1]: JTAG-AP (IDR: 0x02880000)
T08A0 000:134.141   Iterating through AP map to find AHB-AP to use
T08A0 000:135.355   AP[0]: Core found
T08A0 000:135.377   AP[0]: AHB-AP ROM base: 0xE00FF000
T08A0 000:135.974   CPUID register: 0x410FC241. Implementer code: 0x41 (ARM)
T08A0 000:135.996   Found Cortex-M4 r0p1, Little endian.
T08A0 000:237.262   -- Max. mem block: 0x00004698
T08A0 000:237.306   CPU_ReadMem(4 bytes @ 0xE000EDF0)
T08A0 000:238.199   CPU_WriteMem(4 bytes @ 0xE000EDF0)
T08A0 000:238.864   CPU_ReadMem(4 bytes @ 0xE0002000)
T08A0 000:239.570   FPUnit: 6 code (BP) slots and 2 literal slots
T08A0 000:239.588   CPU_ReadMem(4 bytes @ 0xE000EDFC)
T08A0 000:240.274   CPU_WriteMem(4 bytes @ 0xE000EDFC)
T08A0 000:240.987   CPU_ReadMem(4 bytes @ 0xE0001000)
T08A0 000:241.657   CPU_WriteMem(4 bytes @ 0xE0001000)
T08A0 000:242.432   CPU_ReadMem(4 bytes @ 0xE000ED88)
T08A0 000:243.285   CPU_WriteMem(4 bytes @ 0xE000ED88)
T08A0 000:243.987   CPU_ReadMem(4 bytes @ 0xE000ED88)
T08A0 000:244.680   CPU_WriteMem(4 bytes @ 0xE000ED88)
T08A0 000:245.450   CoreSight components:
T08A0 000:245.472   ROMTbl[0] @ E00FF000
T08A0 000:245.523   CPU_ReadMem(64 bytes @ 0xE00FF000)
T08A0 000:246.999   CPU_ReadMem(32 bytes @ 0xE000EFE0)
T08A0 000:248.111   ROMTbl[0][0]: E000E000, CID: B105E00D, PID: 000BB00C SCS-M7
T08A0 000:248.128   CPU_ReadMem(32 bytes @ 0xE0001FE0)
T08A0 000:249.606   ROMTbl[0][1]: E0001000, CID: B105E00D, PID: 003BB002 DWT
T08A0 000:249.642   CPU_ReadMem(32 bytes @ 0xE0002FE0)
T08A0 000:250.904   ROMTbl[0][2]: E0002000, CID: B105E00D, PID: 002BB003 FPB
T08A0 000:250.937   CPU_ReadMem(32 bytes @ 0xE0000FE0)
T08A0 000:252.274   ROMTbl[0][3]: E0000000, CID: B105E00D, PID: 003BB001 ITM
T08A0 000:252.294   CPU_ReadMem(32 bytes @ 0xE0040FE0)
T08A0 000:253.648   ROMTbl[0][4]: E0040000, CID: B105900D, PID: 000BB9A1 TPIU
T08A0 000:253.667   CPU_ReadMem(32 bytes @ 0xE0041FE0)
T08A0 000:254.842   ROMTbl[0][5]: E0041000, CID: B105900D, PID: 000BB925 ETM
T08A0 000:255.383 - 131.100ms   returns 0x2BA01477
T08A0 000:255.405 JLINK_GetDLLVersion()  returns 68001
T08A0 000:255.419 JLINK_CORE_GetFound()
T08A0 000:255.428 - 0.014ms returns 0xE0000FF
T08A0 000:255.446 JLINK_GetDebugInfo(0x100 = JLINKARM_ROM_TABLE_ADDR_INDEX)
T08A0 000:255.471   Value=0xE00FF000
T08A0 000:255.484 - 0.042ms returns 0x00
T08A0 000:255.505 JLINK_GetDebugInfo(0x100 = JLINKARM_ROM_TABLE_ADDR_INDEX)
T08A0 000:255.515   Value=0xE00FF000
T08A0 000:255.528 - 0.027ms returns 0x00
T08A0 000:255.539 JLINK_GetDebugInfo(0x101 = JLINKARM_DEBUG_INFO_ETM_ADDR_INDEX)
T08A0 000:255.548   Value=0xE0041000
T08A0 000:255.561 - 0.027ms returns 0x00
T08A0 000:255.574   JLINK_ReadMemEx(0xE0041FD0, 0x0020 Bytes, ..., Flags = 0x02000004)
T08A0 000:255.601   CPU_ReadMem(32 bytes @ 0xE0041FD0)
T08A0 000:256.631   Data:  04 00 00 00 00 00 00 00 00 00 00 00 00 00 00 00 ...
T08A0 000:256.649 - 1.080ms returns 0x20
T08A0 000:256.664 JLINK_GetDebugInfo(0x102 = JLINKARM_DEBUG_INFO_MTB_ADDR_INDEX)
T08A0 000:256.673   Value=0x00000000
T08A0 000:256.687 - 0.027ms returns 0x00
T08A0 000:256.698 JLINK_GetDebugInfo(0x103 = JLINKARM_DEBUG_INFO_TPIU_ADDR_INDEX)
T08A0 000:256.707   Value=0xE0040000
T08A0 000:256.720 - 0.027ms returns 0x00
T08A0 000:256.732 JLINK_GetDebugInfo(0x104 = JLINKARM_DEBUG_INFO_ITM_ADDR_INDEX)
T08A0 000:256.741   Value=0xE0000000
T08A0 000:256.755 - 0.027ms returns 0x00
T08A0 000:256.765 JLINK_GetDebugInfo(0x105 = JLINKARM_DEBUG_INFO_DWT_ADDR_INDEX)
T08A0 000:256.775   Value=0xE0001000
T08A0 000:256.788 - 0.027ms returns 0x00
T08A0 000:256.799 JLINK_GetDebugInfo(0x106 = JLINKARM_DEBUG_INFO_FPB_ADDR_INDEX)
T08A0 000:256.809   Value=0xE0002000
T08A0 000:256.822 - 0.026ms returns 0x00
T08A0 000:256.832 JLINK_GetDebugInfo(0x107 = JLINKARM_DEBUG_INFO_NVIC_ADDR_INDEX)
T08A0 000:256.842   Value=0xE000E000
T08A0 000:256.855 - 0.027ms returns 0x00
T08A0 000:256.866 JLINK_GetDebugInfo(0x10C = JLINKARM_DEBUG_INFO_DBG_ADDR_INDEX)
T08A0 000:256.876   Value=0xE000EDF0
T08A0 000:256.889 - 0.027ms returns 0x00
T08A0 000:256.899 JLINK_GetDebugInfo(0x01 = Unknown)
T08A0 000:256.912   Value=0x00000001
T08A0 000:256.925 - 0.030ms returns 0x00
T08A0 000:256.937 JLINK_ReadMemU32(0xE000ED00, 0x0001 Items, ...)
T08A0 000:256.950   CPU_ReadMem(4 bytes @ 0xE000ED00)
T08A0 000:257.831   Data:  41 C2 0F 41
T08A0 000:257.849   Debug reg: CPUID
T08A0 000:257.863 - 0.930ms returns 1
T08A0 000:257.878 JLINK_GetDebugInfo(0x10F = JLINKARM_DEBUG_INFO_HAS_CORTEX_M_SECURITY_EXT_INDEX)
T08A0 000:257.888   Value=0x00000000
T08A0 000:257.901 - 0.028ms returns 0x00
T08A0 000:257.980 JLINK_SetResetType(JLINKARM_CM3_RESET_TYPE_NORMAL)
T08A0 000:257.994 - 0.019ms returns JLINKARM_CM3_RESET_TYPE_NORMAL
T08A0 000:258.005 JLINK_Reset()
T08A0 000:258.028   CPU is running
T08A0 000:258.044   CPU_WriteMem(4 bytes @ 0xE000EDF0)
T08A0 000:258.957   CPU is running
T08A0 000:258.977   CPU_WriteMem(4 bytes @ 0xE000EDFC)
T08A0 000:259.785   Reset: Halt core after reset via DEMCR.VC_CORERESET.
T08A0 000:260.589   Reset: Reset device via AIRCR.SYSRESETREQ.
T08A0 000:260.608   CPU is running
T08A0 000:260.623   CPU_WriteMem(4 bytes @ 0xE000ED0C)
T08A0 000:314.401   CPU_ReadMem(4 bytes @ 0xE000EDF0)
T08A0 000:315.218   CPU_ReadMem(4 bytes @ 0xE000EDF0)
T08A0 000:316.608   CPU is running
T08A0 000:316.641   CPU_WriteMem(4 bytes @ 0xE000EDF0)
T08A0 000:317.866   CPU is running
T08A0 000:317.899   CPU_WriteMem(4 bytes @ 0xE000EDFC)
T08A0 000:325.078   CPU_ReadMem(4 bytes @ 0xE000EDF0)
T08A0 000:332.979   CPU_WriteMem(4 bytes @ 0xE0002000)
T08A0 000:333.657   CPU_ReadMem(4 bytes @ 0xE000EDFC)
T08A0 000:334.371   CPU_ReadMem(4 bytes @ 0xE0001000)
T08A0 000:335.013 - 77.015ms
T08A0 000:335.045 JLINK_ReadReg(R15 (PC))
T08A0 000:335.066 - 0.026ms returns 0x00000A80
T08A0 000:335.078 JLINK_ReadReg(XPSR)
T08A0 000:335.087 - 0.014ms returns 0x01000000
T08A0 000:335.100 JLINK_Halt()
T08A0 000:335.109 - 0.013ms returns 0x00
T08A0 000:335.121 JLINK_ReadMemU32(0xE000EDF0, 0x0001 Items, ...)
T08A0 000:335.134   CPU_ReadMem(4 bytes @ 0xE000EDF0)
T08A0 000:335.800   Data:  03 00 03 00
T08A0 000:335.818   Debug reg: DHCSR
T08A0 000:335.832 - 0.715ms returns 1
T08A0 000:335.846 JLINK_WriteU32(0xE000EDF0, 0xA05F0003)
T08A0 000:335.857   Debug reg: DHCSR
T08A0 000:335.888   CPU_WriteMem(4 bytes @ 0xE000EDF0)
T08A0 000:336.711 - 0.904ms returns 0
T08A0 000:336.800 JLINK_WriteU32(0xE000EDFC, 0x01000000)
T08A0 000:336.852   Debug reg: DEMCR
T08A0 000:336.940   CPU_WriteMem(4 bytes @ 0xE000EDFC)
T08A0 000:337.704 - 0.912ms returns 0
T08A0 000:337.753 JLINK_GetHWStatus(...)
T08A0 000:337.994 - 0.249ms returns 0x00
T08A0 000:338.025 JLINK_GetNumBPUnits(Type = 0xFFFFFF00)
T08A0 000:338.036 - 0.015ms returns 0x06
T08A0 000:338.047 JLINK_GetNumBPUnits(Type = 0xF0)
T08A0 000:338.056 - 0.013ms returns 0x2000
T08A0 000:338.067 JLINK_GetNumWPUnits()
T08A0 000:338.076 - 0.013ms returns 0x04
T08A0 000:338.096 JLINK_GetSpeed()
T08A0 000:338.106 - 0.014ms returns 0x3E8
T08A0 000:338.122 JLINK_ReadMemU32(0xE000E004, 0x0001 Items, ...)
T08A0 000:338.135   CPU_ReadMem(4 bytes @ 0xE000E004)
T08A0 000:338.730   Data:  01 00 00 00
T08A0 000:338.747 - 0.629ms returns 1
T08A0 000:338.760 JLINK_ReadMemU32(0xE000E004, 0x0001 Items, ...)
T08A0 000:338.772   CPU_ReadMem(4 bytes @ 0xE000E004)
T08A0 000:339.586   Data:  01 00 00 00
T08A0 000:339.672 - 0.937ms returns 1
T08A0 000:339.737 JLINK_WriteMemEx(0xE0001000, 0x001C Bytes, ..., Flags = 0x02000004)
T08A0 000:339.790   Data:  01 00 00 00 00 00 00 00 00 00 00 00 00 00 00 00 ...
T08A0 000:340.297   CPU_WriteMem(28 bytes @ 0xE0001000)
T08A0 000:341.273 - 1.576ms returns 0x1C
T08A0 000:341.399 JLINK_ReadReg(R15 (PC))
T08A0 000:341.457 - 0.083ms returns 0x00000A80
T08A0 000:341.515 JLINK_ReadReg(XPSR)
T08A0 000:341.544 - 0.034ms returns 0x01000000
T08A0 000:344.750   JLINK_ReadMemEx(0xE0001004, 0x0004 Bytes, ..., Flags = 0x02000000)
T08A0 000:344.772   Data:  00 00 00 00
T08A0 000:344.786   Debug reg: DWT_CYCCNT
T08A0 000:344.799 - 0.054ms returns 0x04
T08A0 000:457.671 JLINK_SetResetType(JLINKARM_CM3_RESET_TYPE_NORMAL)
T08A0 000:457.699 - 0.033ms returns JLINKARM_CM3_RESET_TYPE_NORMAL
T08A0 000:457.711 JLINK_Reset()
T08A0 000:457.730   CPU_WriteMem(4 bytes @ 0xE000EDF0)
T08A0 000:458.867   CPU_WriteMem(4 bytes @ 0xE000EDFC)
T08A0 000:459.682   Reset: Halt core after reset via DEMCR.VC_CORERESET.
T08A0 000:460.433   Reset: Reset device via AIRCR.SYSRESETREQ.
T08A0 000:460.452   CPU_WriteMem(4 bytes @ 0xE000ED0C)
T08A0 000:513.721   CPU_ReadMem(4 bytes @ 0xE000EDF0)
T08A0 000:514.864   CPU_ReadMem(4 bytes @ 0xE000EDF0)
T08A0 000:515.647   CPU_WriteMem(4 bytes @ 0xE000EDF0)
T08A0 000:516.718   CPU_WriteMem(4 bytes @ 0xE000EDFC)
T08A0 000:522.711   CPU_ReadMem(4 bytes @ 0xE000EDF0)
T08A0 000:530.557   CPU_WriteMem(4 bytes @ 0xE0002000)
T08A0 000:531.358   CPU_ReadMem(4 bytes @ 0xE000EDFC)
T08A0 000:532.565   CPU_ReadMem(4 bytes @ 0xE0001000)
T08A0 000:533.824 - 76.135ms
T08A0 000:533.910 JLINK_ReadReg(R15 (PC))
T08A0 000:533.926 - 0.020ms returns 0x00000A80
T08A0 000:533.939 JLINK_ReadReg(XPSR)
T08A0 000:533.950 - 0.015ms returns 0x01000000
T08A0 000:534.042   JLINK_ReadMemEx(0x00000A80, 0x003C Bytes, ..., Flags = 0x02000000)
T08A0 000:534.070   CPU_ReadMem(64 bytes @ 0x00000A80)
T08A0 000:535.585    -- Updating C cache (64 bytes @ 0x00000A80)
T08A0 000:535.681    -- Read from C cache (60 bytes @ 0x00000A80)
T08A0 000:535.703   Data:  06 4B 18 47 06 4A 10 60 01 68 81 F3 08 88 40 68 ...
T08A0 000:535.721 - 1.686ms returns 0x3C
T08A0 000:535.741   JLINK_ReadMemEx(0x00000A80, 0x0002 Bytes, ..., Flags = 0x02000000)
T08A0 000:535.762    -- Read from C cache (2 bytes @ 0x00000A80)
T08A0 000:535.779   Data:  06 4B
T08A0 000:535.797 - 0.063ms returns 0x02
T08A0 000:535.815   JLINK_ReadMemEx(0x00000A82, 0x0002 Bytes, ..., Flags = 0x02000000)
T08A0 000:535.833    -- Read from C cache (2 bytes @ 0x00000A82)
T08A0 000:535.852   Data:  18 47
T08A0 000:535.870 - 0.061ms returns 0x02
T08A0 000:535.914   JLINK_ReadMemEx(0x00000A82, 0x0002 Bytes, ..., Flags = 0x02000000)
T08A0 000:535.933    -- Read from C cache (2 bytes @ 0x00000A82)
T08A0 000:535.951   Data:  18 47
T08A0 000:535.968 - 0.061ms returns 0x02
T08A0 000:535.983   JLINK_ReadMemEx(0x00000A84, 0x003C Bytes, ..., Flags = 0x02000000)
T08A0 000:536.000    -- Read from C cache (60 bytes @ 0x00000A84)
T08A0 000:536.019   Data:  06 4A 10 60 01 68 81 F3 08 88 40 68 00 47 00 00 ...
T08A0 000:536.036 - 0.061ms returns 0x3C
T08A0 000:536.052   JLINK_ReadMemEx(0x00000A84, 0x0002 Bytes, ..., Flags = 0x02000000)
T08A0 000:536.070    -- Read from C cache (2 bytes @ 0x00000A84)
T08A0 000:536.087   Data:  06 4A
T08A0 000:536.104 - 0.058ms returns 0x02
T08A0 000:536.129   JLINK_ReadMemEx(0x00000A84, 0x003C Bytes, ..., Flags = 0x02000000)
T08A0 000:536.148    -- Read from C cache (60 bytes @ 0x00000A84)
T08A0 000:536.166   Data:  06 4A 10 60 01 68 81 F3 08 88 40 68 00 47 00 00 ...
T08A0 000:536.183 - 0.060ms returns 0x3C
T08A0 000:536.197   JLINK_ReadMemEx(0x00000A84, 0x0002 Bytes, ..., Flags = 0x02000000)
T08A0 000:536.216    -- Read from C cache (2 bytes @ 0x00000A84)
T08A0 000:536.233   Data:  06 4A
T08A0 000:536.250 - 0.059ms returns 0x02
T08A0 000:536.265   JLINK_ReadMemEx(0x00000A86, 0x0002 Bytes, ..., Flags = 0x02000000)
T08A0 000:536.283    -- Read from C cache (2 bytes @ 0x00000A86)
T08A0 000:536.300   Data:  10 60
T08A0 000:536.317 - 0.058ms returns 0x02
T08A0 000:536.340   JLINK_ReadMemEx(0x00000A86, 0x0002 Bytes, ..., Flags = 0x02000000)
T08A0 000:536.360    -- Read from C cache (2 bytes @ 0x00000A86)
T08A0 000:536.377   Data:  10 60
T08A0 000:536.394 - 0.060ms returns 0x02
T08A0 000:536.409   JLINK_ReadMemEx(0x00000A88, 0x003C Bytes, ..., Flags = 0x02000000)
T08A0 000:536.431   CPU_ReadMem(64 bytes @ 0x00000AC0)
T08A0 000:538.140    -- Updating C cache (64 bytes @ 0x00000AC0)
T08A0 000:538.170    -- Read from C cache (60 bytes @ 0x00000A88)
T08A0 000:538.186   Data:  01 68 81 F3 08 88 40 68 00 47 00 00 00 0B 00 00 ...
T08A0 000:538.200 - 1.795ms returns 0x3C
T08A0 000:538.216   JLINK_ReadMemEx(0x00000A88, 0x0002 Bytes, ..., Flags = 0x02000000)
T08A0 000:538.231    -- Read from C cache (2 bytes @ 0x00000A88)
T08A0 000:538.245   Data:  01 68
T08A0 000:538.259 - 0.048ms returns 0x02
T08A0 000:538.300   JLINK_ReadMemEx(0x00000A88, 0x003C Bytes, ..., Flags = 0x02000000)
T08A0 000:538.315    -- Read from C cache (60 bytes @ 0x00000A88)
T08A0 000:538.330   Data:  01 68 81 F3 08 88 40 68 00 47 00 00 00 0B 00 00 ...
T08A0 000:538.343 - 0.047ms returns 0x3C
T08A0 000:538.354   JLINK_ReadMemEx(0x00000A88, 0x0002 Bytes, ..., Flags = 0x02000000)
T08A0 000:538.368    -- Read from C cache (2 bytes @ 0x00000A88)
T08A0 000:538.381   Data:  01 68
T08A0 000:538.394 - 0.045ms returns 0x02
T08A0 000:538.405   JLINK_ReadMemEx(0x00000A8A, 0x0002 Bytes, ..., Flags = 0x02000000)
T08A0 000:538.419    -- Read from C cache (2 bytes @ 0x00000A8A)
T08A0 000:538.432   Data:  81 F3
T08A0 000:538.446 - 0.045ms returns 0x02
T08A0 000:538.463   JLINK_ReadMemEx(0x00000A8A, 0x0002 Bytes, ..., Flags = 0x02000000)
T08A0 000:538.477    -- Read from C cache (2 bytes @ 0x00000A8A)
T08A0 000:538.490   Data:  81 F3
T08A0 000:538.504 - 0.045ms returns 0x02
T08A0 000:538.515   JLINK_ReadMemEx(0x00000A8C, 0x003C Bytes, ..., Flags = 0x02000000)
T08A0 000:538.576    -- Read from C cache (60 bytes @ 0x00000A8C)
T08A0 000:538.590   Data:  08 88 40 68 00 47 00 00 00 0B 00 00 00 0B 00 00 ...
T08A0 000:538.603 - 0.093ms returns 0x3C
T08A0 000:538.615   JLINK_ReadMemEx(0x00000A8C, 0x0002 Bytes, ..., Flags = 0x02000000)
T08A0 000:538.628    -- Read from C cache (2 bytes @ 0x00000A8C)
T08A0 000:538.642   Data:  08 88
T08A0 000:538.655 - 0.045ms returns 0x02
T08A0 000:538.675   JLINK_ReadMemEx(0x00000A8E, 0x0002 Bytes, ..., Flags = 0x02000000)
T08A0 000:538.689    -- Read from C cache (2 bytes @ 0x00000A8E)
T08A0 000:538.703   Data:  40 68
T08A0 000:538.716 - 0.045ms returns 0x02
T08A0 000:538.727   JLINK_ReadMemEx(0x00000A90, 0x003C Bytes, ..., Flags = 0x02000000)
T08A0 000:538.741    -- Read from C cache (60 bytes @ 0x00000A90)
T08A0 000:538.754   Data:  00 47 00 00 00 0B 00 00 00 0B 00 00 17 04 00 00 ...
T08A0 000:538.768 - 0.045ms returns 0x3C
T08A0 000:538.778   JLINK_ReadMemEx(0x00000A90, 0x0002 Bytes, ..., Flags = 0x02000000)
T08A0 000:538.792    -- Read from C cache (2 bytes @ 0x00000A90)
T08A0 000:538.805   Data:  00 47
T08A0 000:538.819 - 0.045ms returns 0x02
T08A0 000:651.961   JLINK_ReadMemEx(0x40006000, 0x001C Bytes, ..., Flags = 0x02000004)
T08A0 000:652.000   CPU_ReadMem(28 bytes @ 0x40006000)
T08A0 000:653.067   Data:  00 00 00 00 00 00 00 00 00 00 00 00 00 00 00 00 ...
T08A0 000:653.160 - 1.224ms returns 0x1C
T08A0 000:653.236   JLINK_ReadMemEx(0x4000601C, 0x0004 Bytes, ..., Flags = 0x02000004)
T08A0 000:653.317   CPU_ReadMem(4 bytes @ 0x4000601C)
T08A0 000:654.547   Data:  00 00 00 00
T08A0 000:654.583 - 1.355ms returns 0x04
T08A0 000:654.597   JLINK_ReadMemEx(0x40006030, 0x001C Bytes, ..., Flags = 0x02000004)
T08A0 000:654.615   CPU_ReadMem(28 bytes @ 0x40006030)
T08A0 000:655.694   Data:  00 00 00 00 00 00 00 00 00 00 00 00 00 00 00 00 ...
T08A0 000:655.735 - 1.156ms returns 0x1C
T08A0 000:655.764   JLINK_ReadMemEx(0x4000604C, 0x0004 Bytes, ..., Flags = 0x02000004)
T08A0 000:655.781   CPU_ReadMem(4 bytes @ 0x4000604C)
T08A0 000:657.035   Data:  00 00 00 00
T08A0 000:657.104 - 1.362ms returns 0x04
T08A0 000:657.177   JLINK_ReadMemEx(0x40006060, 0x001C Bytes, ..., Flags = 0x02000004)
T08A0 000:657.200   CPU_ReadMem(28 bytes @ 0x40006060)
T08A0 000:658.261   Data:  00 00 00 00 00 00 00 00 00 00 00 00 00 00 00 00 ...
T08A0 000:658.282 - 1.110ms returns 0x1C
T08A0 000:658.300   JLINK_ReadMemEx(0x4000607C, 0x0004 Bytes, ..., Flags = 0x02000004)
T08A0 000:658.318   CPU_ReadMem(4 bytes @ 0x4000607C)
T08A0 000:659.011   Data:  00 00 00 00
T08A0 000:659.028 - 0.733ms returns 0x04
T08A0 000:659.042   JLINK_ReadMemEx(0x40006100, 0x001C Bytes, ..., Flags = 0x02000004)
T08A0 000:659.059   CPU_ReadMem(28 bytes @ 0x40006100)
T08A0 000:660.057   Data:  00 00 00 00 00 00 00 00 00 00 00 00 00 00 00 00 ...
T08A0 000:660.142 - 1.125ms returns 0x1C
T08A0 000:660.213   JLINK_ReadMemEx(0x4000611C, 0x0004 Bytes, ..., Flags = 0x02000004)
T08A0 000:660.305   CPU_ReadMem(4 bytes @ 0x4000611C)
T08A0 000:660.977   Data:  00 00 00 00
T08A0 000:661.026 - 0.820ms returns 0x04
T08A0 000:661.040   JLINK_ReadMemEx(0x4000617C, 0x0004 Bytes, ..., Flags = 0x02000004)
T08A0 000:661.056   CPU_ReadMem(4 bytes @ 0x4000617C)
T08A0 000:661.820   Data:  00 00 00 00
T08A0 000:661.837 - 0.802ms returns 0x04
T08A0 000:661.851   JLINK_ReadMemEx(0x40006304, 0x0004 Bytes, ..., Flags = 0x02000004)
T08A0 000:661.868   CPU_ReadMem(4 bytes @ 0x40006304)
T08A0 000:662.685   Data:  00 00 00 00
T08A0 000:662.718 - 0.872ms returns 0x04
T08A0 000:662.735   JLINK_ReadMemEx(0x40006308, 0x0004 Bytes, ..., Flags = 0x02000004)
T08A0 000:662.753   CPU_ReadMem(4 bytes @ 0x40006308)
T08A0 000:663.411   Data:  00 00 00 00
T08A0 000:663.509 - 0.779ms returns 0x04
T08A0 000:663.525   JLINK_ReadMemEx(0x40006510, 0x001C Bytes, ..., Flags = 0x02000004)
T08A0 000:663.541   CPU_ReadMem(28 bytes @ 0x40006510)
T08A0 000:664.506   Data:  00 00 00 00 00 00 00 00 00 00 00 00 00 00 00 00 ...
T08A0 000:664.526 - 1.006ms returns 0x1C
T08A0 000:664.542   JLINK_ReadMemEx(0x4000652C, 0x0004 Bytes, ..., Flags = 0x02000004)
T08A0 000:664.558   CPU_ReadMem(4 bytes @ 0x4000652C)
T08A0 000:665.758   Data:  00 00 00 00
T08A0 000:665.775 - 1.238ms returns 0x04
T08A0 000:715.382   JLINK_ReadMemEx(0x50000504, 0x0020 Bytes, ..., Flags = 0x02000004)
T08A0 000:715.421   CPU_ReadMem(32 bytes @ 0x50000504)
T08A0 000:717.093   Data:  00 00 00 00 00 00 00 00 00 00 00 00 00 00 20 00 ...
T08A0 000:717.132 - 1.756ms returns 0x20
T08A0 000:717.155   JLINK_ReadMemEx(0x50000524, 0x0004 Bytes, ..., Flags = 0x02000004)
T08A0 000:717.177   CPU_ReadMem(4 bytes @ 0x50000524)
T08A0 000:718.502   Data:  00 00 00 00
T08A0 000:718.533 - 1.383ms returns 0x04
T08A0 000:718.556   JLINK_ReadMemEx(0x50000700, 0x007C Bytes, ..., Flags = 0x02000004)
T08A0 000:718.578   CPU_ReadMem(124 bytes @ 0x50000700)
T08A0 000:721.484   Data:  02 00 00 00 02 00 00 00 02 00 00 00 02 00 00 00 ...
T08A0 000:721.514 - 2.963ms returns 0x7C
T08A0 000:721.537   JLINK_ReadMemEx(0x5000077C, 0x0004 Bytes, ..., Flags = 0x02000004)
T08A0 000:721.559   CPU_ReadMem(4 bytes @ 0x5000077C)
T08A0 000:722.828   Data:  02 00 00 00
T08A0 000:722.858 - 1.327ms returns 0x04
T08A0 000:772.400   JLINK_ReadMemEx(0x40008000, 0x0010 Bytes, ..., Flags = 0x02000004)
T08A0 000:772.440   CPU_ReadMem(16 bytes @ 0x40008000)
T08A0 000:773.244   Data:  00 00 00 00 00 00 00 00 00 00 00 00 00 00 00 00
T08A0 000:773.333 - 0.958ms returns 0x10
T08A0 000:773.408   JLINK_ReadMemEx(0x40008010, 0x0004 Bytes, ..., Flags = 0x02000004)
T08A0 000:773.449   CPU_ReadMem(4 bytes @ 0x40008010)
T08A0 000:774.100   Data:  00 00 00 00
T08A0 000:774.117 - 0.717ms returns 0x04
T08A0 000:774.134   JLINK_ReadMemEx(0x40008040, 0x0014 Bytes, ..., Flags = 0x02000004)
T08A0 000:774.151   CPU_ReadMem(20 bytes @ 0x40008040)
T08A0 000:775.052   Data:  00 00 00 00 00 00 00 00 00 00 00 00 00 00 00 00 ...
T08A0 000:775.070 - 0.941ms returns 0x14
T08A0 000:775.086   JLINK_ReadMemEx(0x40008054, 0x0004 Bytes, ..., Flags = 0x02000004)
T08A0 000:775.103   CPU_ReadMem(4 bytes @ 0x40008054)
T08A0 000:775.716   Data:  00 00 00 00
T08A0 000:775.733 - 0.653ms returns 0x04
T08A0 000:775.749   JLINK_ReadMemEx(0x40008140, 0x0014 Bytes, ..., Flags = 0x02000004)
T08A0 000:775.766   CPU_ReadMem(20 bytes @ 0x40008140)
T08A0 000:776.700   Data:  00 00 00 00 00 00 00 00 00 00 00 00 00 00 00 00 ...
T08A0 000:776.820 - 1.096ms returns 0x14
T08A0 000:776.899   JLINK_ReadMemEx(0x40008154, 0x0004 Bytes, ..., Flags = 0x02000004)
T08A0 000:776.945   CPU_ReadMem(4 bytes @ 0x40008154)
T08A0 000:777.580   Data:  00 00 00 00
T08A0 000:777.665 - 0.807ms returns 0x04
T08A0 000:777.715   JLINK_ReadMemEx(0x40008200, 0x0004 Bytes, ..., Flags = 0x02000004)
T08A0 000:777.732   CPU_ReadMem(4 bytes @ 0x40008200)
T08A0 000:778.505   Data:  00 00 00 00
T08A0 000:778.522 - 0.812ms returns 0x04
T08A0 000:778.538   JLINK_ReadMemEx(0x40008304, 0x0004 Bytes, ..., Flags = 0x02000004)
T08A0 000:778.556   CPU_ReadMem(4 bytes @ 0x40008304)
T08A0 000:779.401   Data:  00 00 00 00
T08A0 000:779.420 - 0.886ms returns 0x04
T08A0 000:779.436   JLINK_ReadMemEx(0x40008308, 0x0004 Bytes, ..., Flags = 0x02000004)
T08A0 000:779.454   CPU_ReadMem(4 bytes @ 0x40008308)
T08A0 000:780.312   Data:  00 00 00 00
T08A0 000:780.331 - 0.899ms returns 0x04
T08A0 000:780.347   JLINK_ReadMemEx(0x40008504, 0x0004 Bytes, ..., Flags = 0x02000004)
T08A0 000:780.365   CPU_ReadMem(4 bytes @ 0x40008504)
T08A0 000:781.114   Data:  00 00 00 00
T08A0 000:781.133 - 0.791ms returns 0x04
T08A0 000:781.150   JLINK_ReadMemEx(0x40008508, 0x0004 Bytes, ..., Flags = 0x02000004)
T08A0 000:781.168   CPU_ReadMem(4 bytes @ 0x40008508)
T08A0 000:782.041   Data:  00 00 00 00
T08A0 000:782.060 - 0.915ms returns 0x04
T08A0 000:782.076   JLINK_ReadMemEx(0x40008510, 0x0004 Bytes, ..., Flags = 0x02000004)
T08A0 000:782.094   CPU_ReadMem(4 bytes @ 0x40008510)
T08A0 000:782.871   Data:  04 00 00 00
T08A0 000:782.890 - 0.819ms returns 0x04
T08A0 000:782.907   JLINK_ReadMemEx(0x40008540, 0x0014 Bytes, ..., Flags = 0x02000004)
T08A0 000:782.928   CPU_ReadMem(20 bytes @ 0x40008540)
T08A0 000:783.903   Data:  00 00 00 00 00 00 00 00 00 00 00 00 00 00 00 00 ...
T08A0 000:783.922 - 1.020ms returns 0x14
T08A0 000:783.939   JLINK_ReadMemEx(0x40008554, 0x0004 Bytes, ..., Flags = 0x02000004)
T08A0 000:783.957   CPU_ReadMem(4 bytes @ 0x40008554)
T08A0 000:784.718   Data:  00 00 00 00
T08A0 000:784.736 - 0.802ms returns 0x04
T08A0 002:664.895   JLINK_ReadMemEx(0x00000A80, 0x003C Bytes, ..., Flags = 0x02000000)
T08A0 002:664.961    -- Read from C cache (60 bytes @ 0x00000A80)
T08A0 002:664.977   Data:  06 4B 18 47 06 4A 10 60 01 68 81 F3 08 88 40 68 ...
T08A0 002:664.990 - 0.100ms returns 0x3C
T08A0 002:665.002   JLINK_ReadMemEx(0x00000A80, 0x0002 Bytes, ..., Flags = 0x02000000)
T08A0 002:665.016    -- Read from C cache (2 bytes @ 0x00000A80)
T08A0 002:665.030   Data:  06 4B
T08A0 002:665.043 - 0.046ms returns 0x02
T08A0 002:665.055   JLINK_ReadMemEx(0x00000A82, 0x0002 Bytes, ..., Flags = 0x02000000)
T08A0 002:665.069    -- Read from C cache (2 bytes @ 0x00000A82)
T08A0 002:665.083   Data:  18 47
T08A0 002:665.096 - 0.045ms returns 0x02
T08A0 002:665.133   JLINK_ReadMemEx(0x00000A82, 0x0002 Bytes, ..., Flags = 0x02000000)
T08A0 002:665.148    -- Read from C cache (2 bytes @ 0x00000A82)
T08A0 002:665.161   Data:  18 47
T08A0 002:665.175 - 0.046ms returns 0x02
T08A0 002:665.186   JLINK_ReadMemEx(0x00000A84, 0x003C Bytes, ..., Flags = 0x02000000)
T08A0 002:665.200    -- Read from C cache (60 bytes @ 0x00000A84)
T08A0 002:665.214   Data:  06 4A 10 60 01 68 81 F3 08 88 40 68 00 47 00 00 ...
T08A0 002:665.227 - 0.045ms returns 0x3C
T08A0 002:665.238   JLINK_ReadMemEx(0x00000A84, 0x0002 Bytes, ..., Flags = 0x02000000)
T08A0 002:665.252    -- Read from C cache (2 bytes @ 0x00000A84)
T08A0 002:665.265   Data:  06 4A
T08A0 002:665.278 - 0.045ms returns 0x02
T08A0 002:665.295   JLINK_ReadMemEx(0x00000A84, 0x003C Bytes, ..., Flags = 0x02000000)
T08A0 002:665.310    -- Read from C cache (60 bytes @ 0x00000A84)
T08A0 002:665.324   Data:  06 4A 10 60 01 68 81 F3 08 88 40 68 00 47 00 00 ...
T08A0 002:665.337 - 0.046ms returns 0x3C
T08A0 002:665.348   JLINK_ReadMemEx(0x00000A84, 0x0002 Bytes, ..., Flags = 0x02000000)
T08A0 002:665.362    -- Read from C cache (2 bytes @ 0x00000A84)
T08A0 002:665.376   Data:  06 4A
T08A0 002:665.393 - 0.051ms returns 0x02
T08A0 002:665.406   JLINK_ReadMemEx(0x00000A86, 0x0002 Bytes, ..., Flags = 0x02000000)
T08A0 002:665.420    -- Read from C cache (2 bytes @ 0x00000A86)
T08A0 002:665.434   Data:  10 60
T08A0 002:665.447 - 0.046ms returns 0x02
T08A0 002:665.464   JLINK_ReadMemEx(0x00000A86, 0x0002 Bytes, ..., Flags = 0x02000000)
T08A0 002:665.479    -- Read from C cache (2 bytes @ 0x00000A86)
T08A0 002:665.492   Data:  10 60
T08A0 002:665.505 - 0.046ms returns 0x02
T08A0 002:665.516   JLINK_ReadMemEx(0x00000A88, 0x003C Bytes, ..., Flags = 0x02000000)
T08A0 002:665.530    -- Read from C cache (60 bytes @ 0x00000A88)
T08A0 002:665.544   Data:  01 68 81 F3 08 88 40 68 00 47 00 00 00 0B 00 00 ...
T08A0 002:665.557 - 0.045ms returns 0x3C
T08A0 002:665.568   JLINK_ReadMemEx(0x00000A88, 0x0002 Bytes, ..., Flags = 0x02000000)
T08A0 002:665.582    -- Read from C cache (2 bytes @ 0x00000A88)
T08A0 002:665.595   Data:  01 68
T08A0 002:665.609 - 0.045ms returns 0x02
T08A0 002:665.625   JLINK_ReadMemEx(0x00000A88, 0x003C Bytes, ..., Flags = 0x02000000)
T08A0 002:665.647    -- Read from C cache (60 bytes @ 0x00000A88)
T08A0 002:665.695   Data:  01 68 81 F3 08 88 40 68 00 47 00 00 00 0B 00 00 ...
T08A0 002:665.744 - 0.125ms returns 0x3C
T08A0 002:665.759   JLINK_ReadMemEx(0x00000A88, 0x0002 Bytes, ..., Flags = 0x02000000)
T08A0 002:665.790    -- Read from C cache (2 bytes @ 0x00000A88)
T08A0 002:665.804   Data:  01 68
T08A0 002:665.817 - 0.063ms returns 0x02
T08A0 002:665.829   JLINK_ReadMemEx(0x00000A8A, 0x0002 Bytes, ..., Flags = 0x02000000)
T08A0 002:665.843    -- Read from C cache (2 bytes @ 0x00000A8A)
T08A0 002:665.856   Data:  81 F3
T08A0 002:665.874 - 0.049ms returns 0x02
T08A0 002:665.895   JLINK_ReadMemEx(0x00000A8A, 0x0002 Bytes, ..., Flags = 0x02000000)
T08A0 002:665.910    -- Read from C cache (2 bytes @ 0x00000A8A)
T08A0 002:665.924   Data:  81 F3
T08A0 002:665.937 - 0.046ms returns 0x02
T08A0 002:665.948   JLINK_ReadMemEx(0x00000A8C, 0x003C Bytes, ..., Flags = 0x02000000)
T08A0 002:665.962    -- Read from C cache (60 bytes @ 0x00000A8C)
T08A0 002:665.976   Data:  08 88 40 68 00 47 00 00 00 0B 00 00 00 0B 00 00 ...
T08A0 002:665.989 - 0.045ms returns 0x3C
T08A0 002:666.000   JLINK_ReadMemEx(0x00000A8C, 0x0002 Bytes, ..., Flags = 0x02000000)
T08A0 002:666.014    -- Read from C cache (2 bytes @ 0x00000A8C)
T08A0 002:666.027   Data:  08 88
T08A0 002:666.041 - 0.045ms returns 0x02
T08A0 002:666.057   JLINK_ReadMemEx(0x00000A8E, 0x0002 Bytes, ..., Flags = 0x02000000)
T08A0 002:666.072    -- Read from C cache (2 bytes @ 0x00000A8E)
T08A0 002:666.085   Data:  40 68
T08A0 002:666.099 - 0.046ms returns 0x02
T08A0 002:666.110   JLINK_ReadMemEx(0x00000A90, 0x003C Bytes, ..., Flags = 0x02000000)
T08A0 002:666.124    -- Read from C cache (60 bytes @ 0x00000A90)
T08A0 002:666.137   Data:  00 47 00 00 00 0B 00 00 00 0B 00 00 17 04 00 00 ...
T08A0 002:666.151 - 0.045ms returns 0x3C
T08A0 002:666.162   JLINK_ReadMemEx(0x00000A90, 0x0002 Bytes, ..., Flags = 0x02000000)
T08A0 002:666.175    -- Read from C cache (2 bytes @ 0x00000A90)
T08A0 002:666.189   Data:  00 47
T08A0 002:666.202 - 0.045ms returns 0x02
T08A0 003:156.820 JLINK_ReadReg(R0)
T08A0 003:158.149 - 1.351ms returns 0x00000000
T08A0 003:158.182 JLINK_ReadReg(R1)
T08A0 003:158.194 - 0.016ms returns 0x00000000
T08A0 003:158.205 JLINK_ReadReg(R2)
T08A0 003:158.215 - 0.014ms returns 0x00000000
T08A0 003:158.226 JLINK_ReadReg(R3)
T08A0 003:158.235 - 0.014ms returns 0x00000000
T08A0 003:158.246 JLINK_ReadReg(R4)
T08A0 003:158.255 - 0.014ms returns 0x00000000
T08A0 003:158.266 JLINK_ReadReg(R5)
T08A0 003:158.275 - 0.013ms returns 0x00000000
T08A0 003:158.286 JLINK_ReadReg(R6)
T08A0 003:158.295 - 0.014ms returns 0x00000000
T08A0 003:158.306 JLINK_ReadReg(R7)
T08A0 003:158.315 - 0.013ms returns 0x00000000
T08A0 003:158.326 JLINK_ReadReg(R8)
T08A0 003:158.335 - 0.013ms returns 0x00000000
T08A0 003:158.346 JLINK_ReadReg(R9)
T08A0 003:158.355 - 0.013ms returns 0x00000000
T08A0 003:158.366 JLINK_ReadReg(R10)
T08A0 003:158.375 - 0.013ms returns 0x00000000
T08A0 003:158.386 JLINK_ReadReg(R11)
T08A0 003:158.395 - 0.014ms returns 0x00000000
T08A0 003:158.406 JLINK_ReadReg(R12)
T08A0 003:158.415 - 0.013ms returns 0x00000000
T08A0 003:158.426 JLINK_ReadReg(R13 (SP))
T08A0 003:158.435 - 0.014ms returns 0x20000400
T08A0 003:158.446 JLINK_ReadReg(R14)
T08A0 003:158.455 - 0.014ms returns 0xFFFFFFFF
T08A0 003:158.466 JLINK_ReadReg(R15 (PC))
T08A0 003:158.476 - 0.014ms returns 0x00000A80
T08A0 003:158.486 JLINK_ReadReg(XPSR)
T08A0 003:158.496 - 0.014ms returns 0x01000000
T08A0 003:158.506 JLINK_ReadReg(MSP)
T08A0 003:158.516 - 0.014ms returns 0x20000400
T08A0 003:158.526 JLINK_ReadReg(PSP)
T08A0 003:158.536 - 0.013ms returns 0x00000000
T08A0 003:158.546 JLINK_ReadReg(CFBP)
T08A0 003:158.556 - 0.014ms returns 0x00000000
T08A0 003:158.566 JLINK_ReadReg(FPSCR)
T08A0 003:169.626 - 11.080ms returns 0x00000000
T08A0 003:169.661 JLINK_ReadReg(FPS0)
T08A0 003:169.674 - 0.018ms returns 0x00000000
T08A0 003:169.685 JLINK_ReadReg(FPS1)
T08A0 003:169.695 - 0.014ms returns 0x00000000
T08A0 003:169.706 JLINK_ReadReg(FPS2)
T08A0 003:169.716 - 0.015ms returns 0x00000000
T08A0 003:169.729 JLINK_ReadReg(FPS3)
T08A0 003:169.738 - 0.014ms returns 0x00000000
T08A0 003:169.751 JLINK_ReadReg(FPS4)
T08A0 003:169.760 - 0.014ms returns 0x00000000
T08A0 003:169.771 JLINK_ReadReg(FPS5)
T08A0 003:169.780 - 0.014ms returns 0x00000000
T08A0 003:169.791 JLINK_ReadReg(FPS6)
T08A0 003:169.800 - 0.014ms returns 0x00000000
T08A0 003:169.812 JLINK_ReadReg(FPS7)
T08A0 003:169.822 - 0.014ms returns 0x00000000
T08A0 003:169.833 JLINK_ReadReg(FPS8)
T08A0 003:169.842 - 0.014ms returns 0x00000000
T08A0 003:169.894 JLINK_ReadReg(FPS9)
T08A0 003:169.906 - 0.017ms returns 0x00000000
T08A0 003:169.917 JLINK_ReadReg(FPS10)
T08A0 003:169.926 - 0.014ms returns 0x00000000
T08A0 003:169.937 JLINK_ReadReg(FPS11)
T08A0 003:169.946 - 0.014ms returns 0x00000000
T08A0 003:169.958 JLINK_ReadReg(FPS12)
T08A0 003:169.968 - 0.014ms returns 0x00000000
T08A0 003:169.978 JLINK_ReadReg(FPS13)
T08A0 003:169.988 - 0.014ms returns 0x00000000
T08A0 003:169.998 JLINK_ReadReg(FPS14)
T08A0 003:170.008 - 0.014ms returns 0x00000000
T08A0 003:170.020 JLINK_ReadReg(FPS15)
T08A0 003:170.029 - 0.014ms returns 0x00000000
T08A0 003:170.040 JLINK_ReadReg(FPS16)
T08A0 003:170.049 - 0.014ms returns 0x00000000
T08A0 003:170.060 JLINK_ReadReg(FPS17)
T08A0 003:170.069 - 0.014ms returns 0x00000000
T08A0 003:170.081 JLINK_ReadReg(FPS18)
T08A0 003:170.093 - 0.016ms returns 0x00000000
T08A0 003:170.104 JLINK_ReadReg(FPS19)
T08A0 003:170.113 - 0.014ms returns 0x00000000
T08A0 003:170.124 JLINK_ReadReg(FPS20)
T08A0 003:170.134 - 0.014ms returns 0x00000000
T08A0 003:170.145 JLINK_ReadReg(FPS21)
T08A0 003:170.155 - 0.014ms returns 0x00000000
T08A0 003:170.166 JLINK_ReadReg(FPS22)
T08A0 003:170.176 - 0.014ms returns 0x00000000
T08A0 003:170.187 JLINK_ReadReg(FPS23)
T08A0 003:170.196 - 0.014ms returns 0x00000000
T08A0 003:170.208 JLINK_ReadReg(FPS24)
T08A0 003:170.217 - 0.014ms returns 0x00000000
T08A0 003:170.228 JLINK_ReadReg(FPS25)
T08A0 003:170.237 - 0.014ms returns 0x00000000
T08A0 003:170.248 JLINK_ReadReg(FPS26)
T08A0 003:170.257 - 0.014ms returns 0x00000000
T08A0 003:170.269 JLINK_ReadReg(FPS27)
T08A0 003:170.278 - 0.014ms returns 0x00000000
T08A0 003:170.289 JLINK_ReadReg(FPS28)
T08A0 003:170.298 - 0.014ms returns 0x00000000
T08A0 003:170.309 JLINK_ReadReg(FPS29)
T08A0 003:170.318 - 0.014ms returns 0x00000000
T08A0 003:170.330 JLINK_ReadReg(FPS30)
T08A0 003:170.339 - 0.014ms returns 0x00000000
T08A0 003:170.350 JLINK_ReadReg(FPS31)
T08A0 003:170.360 - 0.014ms returns 0x00000000
T2030 003:320.470   JLINK_ReadMemEx(0x00000A80, 0x0002 Bytes, ..., Flags = 0x02000000)
T2030 003:320.503    -- Read from C cache (2 bytes @ 0x00000A80)
T2030 003:320.518   Data:  06 4B
T2030 003:320.532 - 0.068ms returns 0x02
T2030 003:320.549   JLINK_SetBPEx(Addr = 0x0002A5E4, Type = 0xFFFFFFF2)
T2030 003:320.566 - 0.022ms returns 0x00000001
T2030 003:320.579   JLINK_SetBPEx(Addr = 0x0002FCF0, Type = 0xFFFFFFF2)
T2030 003:320.593 - 0.019ms returns 0x00000002
T2030 003:320.608 JLINK_Go()
T2030 003:320.646   CPU_WriteMem(4 bytes @ 0xE0002000)
T2030 003:321.409   CPU_WriteMem(4 bytes @ 0xE0002000)
T2030 003:322.171   CPU_ReadMem(4 bytes @ 0xE0001000)
T2030 003:322.798   CPU_WriteMem(4 bytes @ 0xE0002008)
T2030 003:322.833   CPU_WriteMem(4 bytes @ 0xE000200C)
T2030 003:322.848   CPU_WriteMem(4 bytes @ 0xE0002010)
T2030 003:322.861   CPU_WriteMem(4 bytes @ 0xE0002014)
T2030 003:322.875   CPU_WriteMem(4 bytes @ 0xE0002018)
T2030 003:322.889   CPU_WriteMem(4 bytes @ 0xE000201C)
T2030 003:325.606   CPU_WriteMem(4 bytes @ 0xE0001004)
T2030 003:327.252 - 6.655ms
T2030 003:427.810 JLINK_IsHalted()
T2030 003:434.375 - 6.577ms returns TRUE
T2030 003:434.401 JLINK_Halt()
T2030 003:434.411 - 0.015ms returns 0x00
T2030 003:434.423 JLINK_IsHalted()
T2030 003:434.433 - 0.014ms returns TRUE
T2030 003:434.444 JLINK_IsHalted()
T2030 003:434.454 - 0.014ms returns TRUE
T2030 003:434.467 JLINK_IsHalted()
T2030 003:434.476 - 0.014ms returns TRUE
T2030 003:434.491 JLINK_ReadReg(R15 (PC))
T2030 003:434.502 - 0.017ms returns 0x0002A5E4
T2030 003:434.565 JLINK_ReadReg(XPSR)
T2030 003:434.580 - 0.020ms returns 0x61000000
T2030 003:434.596 JLINK_ClrBPEx(BPHandle = 0x00000001)
T2030 003:434.607 - 0.015ms returns 0x00
T2030 003:434.620 JLINK_ClrBPEx(BPHandle = 0x00000002)
T2030 003:434.631 - 0.015ms returns 0x00
T2030 003:434.645 JLINK_ReadMemU32(0xE000ED30, 0x0001 Items, ...)
T2030 003:434.660   CPU_ReadMem(4 bytes @ 0xE000ED30)
T2030 003:435.339   Data:  02 00 00 00
T2030 003:435.357 - 0.716ms returns 1
T2030 003:435.373 JLINK_ReadMemU32(0xE0001028, 0x0001 Items, ...)
T2030 003:435.387   CPU_ReadMem(4 bytes @ 0xE0001028)
T2030 003:436.085   Data:  00 00 00 00
T2030 003:436.133   Debug reg: DWT_FUNC[0]
T2030 003:436.153 - 0.790ms returns 1
T2030 003:436.173 JLINK_ReadMemU32(0xE0001038, 0x0001 Items, ...)
T2030 003:436.188   CPU_ReadMem(4 bytes @ 0xE0001038)
T2030 003:436.913   Data:  00 02 00 00
T2030 003:436.933   Debug reg: DWT_FUNC[1]
T2030 003:436.947 - 0.778ms returns 1
T2030 003:436.960 JLINK_ReadMemU32(0xE0001048, 0x0001 Items, ...)
T2030 003:436.974   CPU_ReadMem(4 bytes @ 0xE0001048)
T2030 003:437.766   Data:  00 00 00 00
T2030 003:437.785   Debug reg: DWT_FUNC[2]
T2030 003:437.799 - 0.844ms returns 1
T2030 003:437.813 JLINK_ReadMemU32(0xE0001058, 0x0001 Items, ...)
T2030 003:437.827   CPU_ReadMem(4 bytes @ 0xE0001058)
T2030 003:438.584   Data:  00 00 00 00
T2030 003:438.603   Debug reg: DWT_FUNC[3]
T2030 003:438.617 - 0.808ms returns 1
T2030 003:438.680 JLINK_ReadReg(R0)
T2030 003:438.693 - 0.018ms returns 0x0002A5E5
T2030 003:438.705 JLINK_ReadReg(R1)
T2030 003:438.715 - 0.015ms returns 0x200055D0
T2030 003:438.726 JLINK_ReadReg(R2)
T2030 003:438.736 - 0.015ms returns 0x00000000
T2030 003:438.748 JLINK_ReadReg(R3)
T2030 003:438.758 - 0.014ms returns 0x00026AB1
T2030 003:438.769 JLINK_ReadReg(R4)
T2030 003:438.779 - 0.014ms returns 0x000323F4
T2030 003:438.791 JLINK_ReadReg(R5)
T2030 003:438.800 - 0.014ms returns 0x000323F4
T2030 003:438.812 JLINK_ReadReg(R6)
T2030 003:438.822 - 0.014ms returns 0x10001000
T2030 003:438.833 JLINK_ReadReg(R7)
T2030 003:438.843 - 0.014ms returns 0x00000000
T2030 003:438.854 JLINK_ReadReg(R8)
T2030 003:438.864 - 0.014ms returns 0x00000000
T2030 003:438.875 JLINK_ReadReg(R9)
T2030 003:438.885 - 0.014ms returns 0x00000000
T2030 003:438.897 JLINK_ReadReg(R10)
T2030 003:438.907 - 0.015ms returns 0x00000000
T2030 003:438.918 JLINK_ReadReg(R11)
T2030 003:438.928 - 0.014ms returns 0x00000000
T2030 003:438.939 JLINK_ReadReg(R12)
T2030 003:438.949 - 0.014ms returns 0x00000006
T2030 003:438.960 JLINK_ReadReg(R13 (SP))
T2030 003:438.971 - 0.015ms returns 0x200055D0
T2030 003:438.982 JLINK_ReadReg(R14)
T2030 003:438.992 - 0.014ms returns 0x00026519
T2030 003:439.003 JLINK_ReadReg(R15 (PC))
T2030 003:439.014 - 0.015ms returns 0x0002A5E4
T2030 003:439.025 JLINK_ReadReg(XPSR)
T2030 003:439.039 - 0.019ms returns 0x61000000
T2030 003:439.051 JLINK_ReadReg(MSP)
T2030 003:439.060 - 0.014ms returns 0x200055D0
T2030 003:439.072 JLINK_ReadReg(PSP)
T2030 003:439.082 - 0.014ms returns 0x00000000
T2030 003:439.093 JLINK_ReadReg(CFBP)
T2030 003:439.103 - 0.014ms returns 0x00000000
T2030 003:439.114 JLINK_ReadReg(FPSCR)
T2030 003:449.612 - 10.511ms returns 0x00000000
T2030 003:449.635 JLINK_ReadReg(FPS0)
T2030 003:449.648 - 0.017ms returns 0x00000000
T2030 003:449.660 JLINK_ReadReg(FPS1)
T2030 003:449.670 - 0.015ms returns 0x00000000
T2030 003:449.681 JLINK_ReadReg(FPS2)
T2030 003:449.691 - 0.014ms returns 0x00000000
T2030 003:449.703 JLINK_ReadReg(FPS3)
T2030 003:449.712 - 0.014ms returns 0x00000000
T2030 003:449.724 JLINK_ReadReg(FPS4)
T2030 003:449.734 - 0.014ms returns 0x00000000
T2030 003:449.745 JLINK_ReadReg(FPS5)
T2030 003:449.755 - 0.014ms returns 0x00000000
T2030 003:449.766 JLINK_ReadReg(FPS6)
T2030 003:449.776 - 0.014ms returns 0x00000000
T2030 003:449.788 JLINK_ReadReg(FPS7)
T2030 003:449.798 - 0.014ms returns 0x00000000
T2030 003:449.809 JLINK_ReadReg(FPS8)
T2030 003:449.819 - 0.014ms returns 0x00000000
T2030 003:449.830 JLINK_ReadReg(FPS9)
T2030 003:449.840 - 0.014ms returns 0x00000000
T2030 003:449.851 JLINK_ReadReg(FPS10)
T2030 003:449.861 - 0.014ms returns 0x00000000
T2030 003:449.873 JLINK_ReadReg(FPS11)
T2030 003:449.883 - 0.014ms returns 0x00000000
T2030 003:449.894 JLINK_ReadReg(FPS12)
T2030 003:449.904 - 0.014ms returns 0x00000000
T2030 003:449.915 JLINK_ReadReg(FPS13)
T2030 003:449.925 - 0.014ms returns 0x00000000
T2030 003:449.936 JLINK_ReadReg(FPS14)
T2030 003:449.946 - 0.014ms returns 0x00000000
T2030 003:449.960 JLINK_ReadReg(FPS15)
T2030 003:449.971 - 0.016ms returns 0x00000000
T2030 003:449.982 JLINK_ReadReg(FPS16)
T2030 003:449.992 - 0.015ms returns 0x00000000
T2030 003:450.004 JLINK_ReadReg(FPS17)
T2030 003:450.014 - 0.014ms returns 0x00000000
T2030 003:450.025 JLINK_ReadReg(FPS18)
T2030 003:450.035 - 0.015ms returns 0x00000000
T2030 003:450.047 JLINK_ReadReg(FPS19)
T2030 003:450.063 - 0.026ms returns 0x00000000
T2030 003:450.082 JLINK_ReadReg(FPS20)
T2030 003:450.093 - 0.016ms returns 0x00000000
T2030 003:450.104 JLINK_ReadReg(FPS21)
T2030 003:450.114 - 0.014ms returns 0x00000000
T2030 003:450.125 JLINK_ReadReg(FPS22)
T2030 003:450.135 - 0.014ms returns 0x00000000
T2030 003:450.146 JLINK_ReadReg(FPS23)
T2030 003:450.156 - 0.014ms returns 0x00000000
T2030 003:450.167 JLINK_ReadReg(FPS24)
T2030 003:450.176 - 0.014ms returns 0x00000000
T2030 003:450.187 JLINK_ReadReg(FPS25)
T2030 003:450.197 - 0.014ms returns 0x00000000
T2030 003:450.208 JLINK_ReadReg(FPS26)
T2030 003:450.218 - 0.014ms returns 0x00000000
T2030 003:450.229 JLINK_ReadReg(FPS27)
T2030 003:450.238 - 0.014ms returns 0x00000000
T2030 003:450.250 JLINK_ReadReg(FPS28)
T2030 003:450.259 - 0.014ms returns 0x00000000
T2030 003:450.270 JLINK_ReadReg(FPS29)
T2030 003:450.280 - 0.014ms returns 0x00000000
T2030 003:450.291 JLINK_ReadReg(FPS30)
T2030 003:450.300 - 0.014ms returns 0x00000000
T2030 003:450.312 JLINK_ReadReg(FPS31)
T2030 003:450.321 - 0.014ms returns 0x00000000
T08A0 003:453.265   JLINK_ReadMemEx(0x50000504, 0x0020 Bytes, ..., Flags = 0x02000004)
T08A0 003:453.294   CPU_ReadMem(32 bytes @ 0x50000504)
T08A0 003:454.352   Data:  00 00 00 00 00 00 00 00 00 00 00 00 00 00 20 00 ...
T08A0 003:454.371 - 1.112ms returns 0x20
T08A0 003:454.387   JLINK_ReadMemEx(0x50000524, 0x0004 Bytes, ..., Flags = 0x02000004)
T08A0 003:454.406   CPU_ReadMem(4 bytes @ 0x50000524)
T08A0 003:455.198   Data:  00 00 00 00
T08A0 003:455.217 - 0.835ms returns 0x04
T08A0 003:455.232   JLINK_ReadMemEx(0x50000700, 0x007C Bytes, ..., Flags = 0x02000004)
T08A0 003:455.250   CPU_ReadMem(124 bytes @ 0x50000700)
T08A0 003:457.528   Data:  02 00 00 00 02 00 00 00 02 00 00 00 02 00 00 00 ...
T08A0 003:457.551 - 2.324ms returns 0x7C
T08A0 003:457.566   JLINK_ReadMemEx(0x5000077C, 0x0004 Bytes, ..., Flags = 0x02000004)
T08A0 003:457.585   CPU_ReadMem(4 bytes @ 0x5000077C)
T08A0 003:458.625   Data:  02 00 00 00
T08A0 003:458.644 - 1.083ms returns 0x04
T08A0 003:459.307   JLINK_ReadMemEx(0x40006000, 0x001C Bytes, ..., Flags = 0x02000004)
T08A0 003:459.330   CPU_ReadMem(28 bytes @ 0x40006000)
T08A0 003:460.510   Data:  00 00 00 00 00 00 00 00 00 00 00 00 00 00 00 00 ...
T08A0 003:460.528 - 1.227ms returns 0x1C
T08A0 003:460.543   JLINK_ReadMemEx(0x4000601C, 0x0004 Bytes, ..., Flags = 0x02000004)
T08A0 003:460.562   CPU_ReadMem(4 bytes @ 0x4000601C)
T08A0 003:462.006   Data:  00 00 00 00
T08A0 003:462.024 - 1.485ms returns 0x04
T08A0 003:462.038   JLINK_ReadMemEx(0x40006030, 0x001C Bytes, ..., Flags = 0x02000004)
T08A0 003:462.056   CPU_ReadMem(28 bytes @ 0x40006030)
T08A0 003:463.446   Data:  00 00 00 00 00 00 00 00 00 00 00 00 00 00 00 00 ...
T08A0 003:463.466 - 1.432ms returns 0x1C
T08A0 003:463.481   JLINK_ReadMemEx(0x4000604C, 0x0004 Bytes, ..., Flags = 0x02000004)
T08A0 003:463.499   CPU_ReadMem(4 bytes @ 0x4000604C)
T08A0 003:464.498   Data:  00 00 00 00
T08A0 003:464.517 - 1.041ms returns 0x04
T08A0 003:464.532   JLINK_ReadMemEx(0x40006060, 0x001C Bytes, ..., Flags = 0x02000004)
T08A0 003:464.550   CPU_ReadMem(28 bytes @ 0x40006060)
T08A0 003:465.554   Data:  00 00 00 00 00 00 00 00 00 00 00 00 00 00 00 00 ...
T08A0 003:465.572 - 1.045ms returns 0x1C
T08A0 003:465.587   JLINK_ReadMemEx(0x4000607C, 0x0004 Bytes, ..., Flags = 0x02000004)
T08A0 003:465.606   CPU_ReadMem(4 bytes @ 0x4000607C)
T08A0 003:466.838   Data:  00 00 00 00
T08A0 003:466.856 - 1.274ms returns 0x04
T08A0 003:466.871   JLINK_ReadMemEx(0x40006100, 0x001C Bytes, ..., Flags = 0x02000004)
T08A0 003:466.888   CPU_ReadMem(28 bytes @ 0x40006100)
T08A0 003:468.194   Data:  00 00 00 00 00 00 00 00 00 00 00 00 00 00 00 00 ...
T08A0 003:468.212 - 1.346ms returns 0x1C
T08A0 003:468.226   JLINK_ReadMemEx(0x4000611C, 0x0004 Bytes, ..., Flags = 0x02000004)
T08A0 003:468.243   CPU_ReadMem(4 bytes @ 0x4000611C)
T08A0 003:469.231   Data:  00 00 00 00
T08A0 003:469.249 - 1.028ms returns 0x04
T08A0 003:469.263   JLINK_ReadMemEx(0x4000617C, 0x0004 Bytes, ..., Flags = 0x02000004)
T08A0 003:469.280   CPU_ReadMem(4 bytes @ 0x4000617C)
T08A0 003:470.327   Data:  00 00 00 00
T08A0 003:470.344 - 1.086ms returns 0x04
T08A0 003:470.358   JLINK_ReadMemEx(0x40006304, 0x0004 Bytes, ..., Flags = 0x02000004)
T08A0 003:470.375   CPU_ReadMem(4 bytes @ 0x40006304)
T08A0 003:471.352   Data:  00 00 00 00
T08A0 003:471.370 - 1.017ms returns 0x04
T08A0 003:471.384   JLINK_ReadMemEx(0x40006308, 0x0004 Bytes, ..., Flags = 0x02000004)
T08A0 003:471.401   CPU_ReadMem(4 bytes @ 0x40006308)
T08A0 003:472.360   Data:  00 00 00 00
T08A0 003:472.377 - 0.998ms returns 0x04
T08A0 003:472.391   JLINK_ReadMemEx(0x40006510, 0x001C Bytes, ..., Flags = 0x02000004)
T08A0 003:472.408   CPU_ReadMem(28 bytes @ 0x40006510)
T08A0 003:473.390   Data:  00 00 00 00 00 00 00 00 00 00 00 00 00 00 00 00 ...
T08A0 003:473.407 - 1.021ms returns 0x1C
T08A0 003:473.422   JLINK_ReadMemEx(0x4000652C, 0x0004 Bytes, ..., Flags = 0x02000004)
T08A0 003:473.439   CPU_ReadMem(4 bytes @ 0x4000652C)
T08A0 003:474.357   Data:  00 00 00 00
T08A0 003:474.455 - 1.058ms returns 0x04
T08A0 003:474.841   JLINK_ReadMemEx(0x40008000, 0x0010 Bytes, ..., Flags = 0x02000004)
T08A0 003:474.861   CPU_ReadMem(16 bytes @ 0x40008000)
T08A0 003:475.648   Data:  00 00 00 00 00 00 00 00 00 00 00 00 00 00 00 00
T08A0 003:475.665 - 0.830ms returns 0x10
T08A0 003:475.680   JLINK_ReadMemEx(0x40008010, 0x0004 Bytes, ..., Flags = 0x02000004)
T08A0 003:475.698   CPU_ReadMem(4 bytes @ 0x40008010)
T08A0 003:476.649   Data:  00 00 00 00
T08A0 003:476.668 - 0.993ms returns 0x04
T08A0 003:476.683   JLINK_ReadMemEx(0x40008040, 0x0014 Bytes, ..., Flags = 0x02000004)
T08A0 003:476.701   CPU_ReadMem(20 bytes @ 0x40008040)
T08A0 003:478.096   Data:  00 00 00 00 00 00 00 00 00 00 00 00 00 00 00 00 ...
T08A0 003:478.114 - 1.436ms returns 0x14
T08A0 003:478.128   JLINK_ReadMemEx(0x40008054, 0x0004 Bytes, ..., Flags = 0x02000004)
T08A0 003:478.146   CPU_ReadMem(4 bytes @ 0x40008054)
T08A0 003:478.912   Data:  00 00 00 00
T08A0 003:478.930 - 0.807ms returns 0x04
T08A0 003:478.944   JLINK_ReadMemEx(0x40008140, 0x0014 Bytes, ..., Flags = 0x02000004)
T08A0 003:478.962   CPU_ReadMem(20 bytes @ 0x40008140)
T08A0 003:479.943   Data:  00 00 00 00 00 00 00 00 00 00 00 00 00 00 00 00 ...
T08A0 003:479.960 - 1.021ms returns 0x14
T08A0 003:479.974   JLINK_ReadMemEx(0x40008154, 0x0004 Bytes, ..., Flags = 0x02000004)
T08A0 003:479.992   CPU_ReadMem(4 bytes @ 0x40008154)
T08A0 003:480.694   Data:  00 00 00 00
T08A0 003:480.712 - 0.742ms returns 0x04
T08A0 003:480.726   JLINK_ReadMemEx(0x40008200, 0x0004 Bytes, ..., Flags = 0x02000004)
T08A0 003:480.743   CPU_ReadMem(4 bytes @ 0x40008200)
T08A0 003:481.487   Data:  00 00 00 00
T08A0 003:481.504 - 0.783ms returns 0x04
T08A0 003:481.518   JLINK_ReadMemEx(0x40008304, 0x0004 Bytes, ..., Flags = 0x02000004)
T08A0 003:481.535   CPU_ReadMem(4 bytes @ 0x40008304)
T08A0 003:482.546   Data:  00 00 00 00
T08A0 003:482.570 - 1.057ms returns 0x04
T08A0 003:482.584   JLINK_ReadMemEx(0x40008308, 0x0004 Bytes, ..., Flags = 0x02000004)
T08A0 003:482.601   CPU_ReadMem(4 bytes @ 0x40008308)
T08A0 003:483.330   Data:  00 00 00 00
T08A0 003:483.347 - 0.768ms returns 0x04
T08A0 003:483.361   JLINK_ReadMemEx(0x40008504, 0x0004 Bytes, ..., Flags = 0x02000004)
T08A0 003:483.379   CPU_ReadMem(4 bytes @ 0x40008504)
T08A0 003:484.301   Data:  00 00 00 00
T08A0 003:484.318 - 0.961ms returns 0x04
T08A0 003:484.332   JLINK_ReadMemEx(0x40008508, 0x0004 Bytes, ..., Flags = 0x02000004)
T08A0 003:484.349   CPU_ReadMem(4 bytes @ 0x40008508)
T08A0 003:485.234   Data:  00 00 00 00
T08A0 003:485.252 - 0.926ms returns 0x04
T08A0 003:485.270   JLINK_ReadMemEx(0x40008510, 0x0004 Bytes, ..., Flags = 0x02000004)
T08A0 003:485.289   CPU_ReadMem(4 bytes @ 0x40008510)
T08A0 003:485.984   Data:  04 00 00 00
T08A0 003:486.001 - 0.736ms returns 0x04
T08A0 003:486.017   JLINK_ReadMemEx(0x40008540, 0x0014 Bytes, ..., Flags = 0x02000004)
T08A0 003:486.062   CPU_ReadMem(20 bytes @ 0x40008540)
T08A0 003:487.245   Data:  00 00 00 00 00 00 00 00 00 00 00 00 00 00 00 00 ...
T08A0 003:487.262 - 1.250ms returns 0x14
T08A0 003:487.278   JLINK_ReadMemEx(0x40008554, 0x0004 Bytes, ..., Flags = 0x02000004)
T08A0 003:487.304   CPU_ReadMem(4 bytes @ 0x40008554)
T08A0 003:488.011   Data:  00 00 00 00
T08A0 003:488.029 - 0.756ms returns 0x04
T08A0 003:492.648   JLINK_ReadMemEx(0x0002A540, 0x003C Bytes, ..., Flags = 0x02000000)
T08A0 003:492.672   CPU_ReadMem(64 bytes @ 0x0002A540)
T08A0 003:494.460    -- Updating C cache (64 bytes @ 0x0002A540)
T08A0 003:494.478    -- Read from C cache (60 bytes @ 0x0002A540)
T08A0 003:494.494   Data:  2D E9 FF 41 00 26 24 48 00 F0 04 FB 22 48 00 1F ...
T08A0 003:494.507 - 1.864ms returns 0x3C
T08A0 003:494.521   JLINK_ReadMemEx(0x0002A540, 0x0002 Bytes, ..., Flags = 0x02000000)
T08A0 003:494.536    -- Read from C cache (2 bytes @ 0x0002A540)
T08A0 003:494.550   Data:  2D E9
T08A0 003:494.563 - 0.047ms returns 0x02
T08A0 003:494.629   JLINK_ReadMemEx(0x0002A542, 0x0002 Bytes, ..., Flags = 0x02000000)
T08A0 003:494.644    -- Read from C cache (2 bytes @ 0x0002A542)
T08A0 003:494.658   Data:  FF 41
T08A0 003:494.671 - 0.047ms returns 0x02
T08A0 003:494.684   JLINK_ReadMemEx(0x0002A544, 0x003C Bytes, ..., Flags = 0x02000000)
T08A0 003:494.698    -- Read from C cache (60 bytes @ 0x0002A544)
